T0AC8 176637:525 SEGGER J-Link V6.46 Log File (0001ms, 231060ms total)
T0AC8 176637:525 DLL Compiled: May 23 2019 17:49:56 (0001ms, 231060ms total)
T0AC8 176637:525 Logging started @ 2019-12-11 11:29 (0001ms, 231060ms total)
T0AC8 176637:526 JLINK_SetWarnOutHandler(...) (0000ms, 231060ms total)
T0AC8 176637:527 JLINK_OpenEx(...)
Firmware: J-Link ARM-OB STM32 compiled Aug 22 2012 19:52:04
Hardware: V7.00
S/N: 20090928
Feature(s): RDI,FlashDL,FlashBP,JFlash,GDBFull
TELNET listener socket opened on port 19021WEBSRV 
Starting webserver (0058ms, 231119ms total)
T0AC8 176637:527 WEBSRV Webserver running on local port 19080 (0058ms, 231119ms total)
T0AC8 176637:527   returns O.K. (0058ms, 231119ms total)
T0AC8 176637:585 JLINK_GetEmuCaps()  returns 0x88EA5833 (0000ms, 231119ms total)
T0AC8 176637:585 JLINK_TIF_GetAvailable(...) (0001ms, 231120ms total)
T0AC8 176637:586 JLINK_SetErrorOutHandler(...) (0000ms, 231120ms total)
T0AC8 176637:586 JLINK_ExecCommand("ProjectFile = "D:\FromWXWork\WXWork\1688851819023011\Cache\File\2019-11\H2-E\H2-E_LU_F103C8\H2-E_LU_F103C8\JLinkSettings.ini"", ...).   returns 0x00 (0002ms, 231122ms total)
T0AC8 176637:588 JLINK_ExecCommand("Device = STM32F103C8", ...). Device "STM32F103C8" selected.  returns 0x00 (0001ms, 231123ms total)
T0AC8 176637:589 JLINK_ExecCommand("DisableConnectionTimeout", ...).   returns 0x01 (0000ms, 231123ms total)
T0AC8 176637:589 JLINK_GetHardwareVersion()  returns 0x11170 (0000ms, 231123ms total)
T0AC8 176637:589 JLINK_GetDLLVersion()  returns 64600 (0000ms, 231123ms total)
T0AC8 176637:589 JLINK_GetFirmwareString(...) (0000ms, 231123ms total)
T0AC8 176637:589 JLINK_GetDLLVersion()  returns 64600 (0000ms, 231123ms total)
T0AC8 176637:589 JLINK_GetCompileDateTime() (0000ms, 231123ms total)
T0AC8 176637:589 JLINK_GetFirmwareString(...) (0000ms, 231123ms total)
T0AC8 176637:589 JLINK_GetHardwareVersion()  returns 0x11170 (0000ms, 231123ms total)
T0AC8 176637:589 JLINK_TIF_Select(JLINKARM_TIF_SWD)  returns 0x00 (0001ms, 231124ms total)
T0AC8 176637:590 JLINK_SetSpeed(5000) (0000ms, 231124ms total)
T0AC8 176637:590 JLINK_GetId() >0x10B TIF>Found SW-DP with ID 0x1BA01477 >0x0D TIF> >0x28 TIF> >0x0D TIF> >0x28 TIF> >0x0D TIF> >0x28 TIF> >0x0D TIF> >0x28 TIF> >0x0D TIF> >0x21 TIF> >0x0D TIF> >0x28 TIF> >0x0D TIF> >0x28 TIF> >0x0D TIF> >0x28 TIF> >0x0D TIF> >0x21 TIF> >0x0D TIF> >0x21 TIF> >0x0D TIF> >0x28 TIF> >0x0D TIF> >0x21 TIF> >0x0D TIF> >0x21 TIF> >0x0D TIF> >0x28 TIF> >0x0D TIF> >0x21 TIF> >0x0D TIF> >0x21 TIF> >0x0D TIF> >0x28 TIF> >0x0D TIF> >0x21 TIF> >0x0D TIF> >0x21 TIF> >0x0D TIF>
 >0x28 TIF> >0x0D TIF> >0x21 TIF> >0x0D TIF> >0x21 TIF> >0x0D TIF> >0x28 TIF> >0x0D TIF> >0x21 TIF> >0x0D TIF> >0x21 TIF> >0x0D TIF> >0x28 TIF> >0x0D TIF> >0x21 TIF> >0x0D TIF> >0x21 TIF> >0x10B TIF>Found SW-DP with ID 0x1BA01477 >0x0D TIF> >0x28 TIF> >0x0D TIF> >0x28 TIF> >0x0D TIF> >0x28 TIF> >0x0D TIF> >0x28 TIF> >0x0D TIF> >0x21 TIF> >0x0D TIF> >0x28 TIF>Scanning AP map to find all available APs >0x0D TIF> >0x28 TIF> >0x0D TIF> >0x21 TIF> >0x0D TIF> >0x21 TIF> >0x0D TIF> >0x28 TIF> >0x0D TIF>
 >0x21 TIF> >0x0D TIF> >0x21 TIF>AP[1]: Stopped AP scan as end of AP map has been reachedAP[0]: AHB-AP (IDR: 0x14770011)Iterating through AP map to find AHB-AP to use >0x42 TIF> >0x28 TIF> >0x0D TIF> >0x28 TIF> >0x0D TIF> >0x21 TIF> >0x0D TIF> >0x21 TIF> >0x42 TIF> >0x28 TIF> >0x0D TIF> >0x28 TIF> >0x0D TIF> >0x28 TIF> >0x0D TIF> >0x21 TIF> >0x0D TIF> >0x21 TIF>AP[0]: Core foundAP[0]: AHB-AP ROM base: 0xE00FF000 >0x0D TIF> >0x28 TIF> >0x0D TIF> >0x28 TIF> >0x0D TIF> >0x28 TIF> >0x0D TIF> >0x21 TIF>
 >0x0D TIF> >0x21 TIF>CPUID register: 0x411FC231. Implementer code: 0x41 (ARM)Found Cortex-M3 r1p1, Little endian. -- Max. mem block: 0x00002C18 -- CPU_ReadMem(4 bytes @ 0xE000EDF0) -- CPU_WriteMem(4 bytes @ 0xE000EDF0) -- CPU_ReadMem(4 bytes @ 0xE0002000)FPUnit: 6 code (BP) slots and 2 literal slots -- CPU_ReadMem(4 bytes @ 0xE000EDFC) -- CPU_WriteMem(4 bytes @ 0xE000EDFC) -- CPU_ReadMem(4 bytes @ 0xE0001000) -- CPU_WriteMem(4 bytes @ 0xE0001000) -- CPU_ReadMem(4 bytes @ 0xE000ED88)
 -- CPU_WriteMem(4 bytes @ 0xE000ED88) -- CPU_ReadMem(4 bytes @ 0xE000ED88) -- CPU_WriteMem(4 bytes @ 0xE000ED88)CoreSight components:ROMTbl[0] @ E00FF000 -- CPU_ReadMem(16 bytes @ 0xE00FF000) -- CPU_ReadMem(16 bytes @ 0xE000EFF0) -- CPU_ReadMem(16 bytes @ 0xE000EFE0)ROMTbl[0][0]: E000E000, CID: B105E00D, PID: 001BB000 SCS -- CPU_ReadMem(16 bytes @ 0xE0001FF0) -- CPU_ReadMem(16 bytes @ 0xE0001FE0)ROMTbl[0][1]: E0001000, CID: B105E00D, PID: 001BB002 DWT -- CPU_ReadMem(16 bytes @ 0xE0002FF0)
 -- CPU_ReadMem(16 bytes @ 0xE0002FE0)ROMTbl[0][2]: E0002000, CID: B105E00D, PID: 000BB003 FPB -- CPU_ReadMem(16 bytes @ 0xE0000FF0) -- CPU_ReadMem(16 bytes @ 0xE0000FE0)ROMTbl[0][3]: E0000000, CID: B105E00D, PID: 001BB001 ITM -- CPU_ReadMem(16 bytes @ 0xE00FF010) -- CPU_ReadMem(16 bytes @ 0xE0040FF0) -- CPU_ReadMem(16 bytes @ 0xE0040FE0)ROMTbl[0][4]: E0040000, CID: B105900D, PID: 001BB923 TPIU-Lite >0x0D TIF> >0x21 TIF>  returns 0x1BA01477 (0157ms, 231281ms total)
T0AC8 176637:747 JLINK_GetDLLVersion()  returns 64600 (0000ms, 231281ms total)
T0AC8 176637:747 JLINK_CORE_GetFound()  returns 0x30000FF (0000ms, 231281ms total)
T0AC8 176637:747 JLINK_GetDebugInfo(0x100 = JLINKARM_ROM_TABLE_ADDR_INDEX) -- Value=0xE00FF000  returns 0x00 (0000ms, 231281ms total)
T0AC8 176637:747 JLINK_GetDebugInfo(0x100 = JLINKARM_ROM_TABLE_ADDR_INDEX) -- Value=0xE00FF000  returns 0x00 (0000ms, 231281ms total)
T0AC8 176637:747 JLINK_GetDebugInfo(0x101 = JLINKARM_DEBUG_INFO_ETM_ADDR_INDEX) -- Value=0x00000000  returns 0x00 (0000ms, 231281ms total)
T0AC8 176637:747 JLINK_ReadMemEx(0xE0041FF0, 0x0010 Bytes, ..., Flags = 0x02000004) -- CPU_ReadMem(16 bytes @ 0xE0041FF0) - Data: 00 00 00 00 00 00 00 00 00 00 00 00 00 00 00 00  returns 0x10 (0001ms, 231282ms total)
T0AC8 176637:748 JLINK_GetDebugInfo(0x102 = JLINKARM_DEBUG_INFO_MTB_ADDR_INDEX) -- Value=0x00000000  returns 0x00 (0000ms, 231282ms total)
T0AC8 176637:748 JLINK_GetDebugInfo(0x103 = JLINKARM_DEBUG_INFO_TPIU_ADDR_INDEX) -- Value=0xE0040000  returns 0x00 (0000ms, 231282ms total)
T0AC8 176637:748 JLINK_GetDebugInfo(0x104 = JLINKARM_DEBUG_INFO_ITM_ADDR_INDEX) -- Value=0xE0000000  returns 0x00 (0000ms, 231282ms total)
T0AC8 176637:748 JLINK_GetDebugInfo(0x105 = JLINKARM_DEBUG_INFO_DWT_ADDR_INDEX) -- Value=0xE0001000  returns 0x00 (0000ms, 231282ms total)
T0AC8 176637:748 JLINK_GetDebugInfo(0x106 = JLINKARM_DEBUG_INFO_FPB_ADDR_INDEX) -- Value=0xE0002000  returns 0x00 (0000ms, 231282ms total)
T0AC8 176637:748 JLINK_GetDebugInfo(0x107 = JLINKARM_DEBUG_INFO_NVIC_ADDR_INDEX) -- Value=0xE000E000  returns 0x00 (0000ms, 231282ms total)
T0AC8 176637:748 JLINK_GetDebugInfo(0x10C = JLINKARM_DEBUG_INFO_DBG_ADDR_INDEX) -- Value=0xE000EDF0  returns 0x00 (0000ms, 231282ms total)
T0AC8 176637:748 JLINK_GetDebugInfo(0x01 = Unknown) -- Value=0x00000000  returns 0x00 (0000ms, 231282ms total)
T0AC8 176637:748 JLINK_ReadMemU32(0xE000ED00, 0x0001 Items, ...) -- CPU_ReadMem(4 bytes @ 0xE000ED00) - Data: 31 C2 1F 41  returns 1 (0000ms, 231282ms total)
T0AC8 176637:748 JLINK_GetDebugInfo(0x10F = JLINKARM_DEBUG_INFO_HAS_CORTEX_M_SECURITY_EXT_INDEX) -- Value=0x00000000  returns 0x00 (0000ms, 231282ms total)
T0AC8 176637:748 JLINK_SetResetType(JLINKARM_CM3_RESET_TYPE_NORMAL)  returns JLINKARM_CM3_RESET_TYPE_NORMAL (0000ms, 231282ms total)
T0AC8 176637:748 JLINK_Reset() -- CPU is running -- CPU_WriteMem(4 bytes @ 0xE000EDF0) -- CPU is running -- CPU_WriteMem(4 bytes @ 0xE000EDFC)Reset: Halt core after reset via DEMCR.VC_CORERESET. >0x35 TIF>Reset: Reset device via AIRCR.SYSRESETREQ. -- CPU is running -- CPU_WriteMem(4 bytes @ 0xE000ED0C) >0x0D TIF> >0x28 TIF> -- CPU_ReadMem(4 bytes @ 0xE000EDF0) -- CPU_ReadMem(4 bytes @ 0xE000EDF0) -- CPU is running -- CPU_WriteMem(4 bytes @ 0xE000EDF0) -- CPU is running
 -- CPU_WriteMem(4 bytes @ 0xE000EDFC) -- CPU_ReadMem(4 bytes @ 0xE000EDF0) -- CPU_WriteMem(4 bytes @ 0xE0002000) -- CPU_ReadMem(4 bytes @ 0xE000EDFC) -- CPU_ReadMem(4 bytes @ 0xE0001000) (0070ms, 231352ms total)
T0AC8 176637:818 JLINK_ReadReg(R15 (PC))  returns 0x08000188 (0000ms, 231352ms total)
T0AC8 176637:818 JLINK_ReadReg(XPSR)  returns 0x01000000 (0000ms, 231352ms total)
T0AC8 176637:818 JLINK_Halt()  returns 0x00 (0000ms, 231352ms total)
T0AC8 176637:818 JLINK_ReadMemU32(0xE000EDF0, 0x0001 Items, ...) -- CPU_ReadMem(4 bytes @ 0xE000EDF0) - Data: 03 00 03 00  returns 1 (0001ms, 231353ms total)
T0AC8 176637:819 JLINK_WriteU32(0xE000EDF0, 0xA05F0003) -- CPU_WriteMem(4 bytes @ 0xE000EDF0)  returns 0 (0001ms, 231354ms total)
T0AC8 176637:820 JLINK_WriteU32(0xE000EDFC, 0x01000000) -- CPU_WriteMem(4 bytes @ 0xE000EDFC)  returns 0 (0000ms, 231354ms total)
T0AC8 176637:820 JLINK_GetHWStatus(...)  returns 0x00 (0000ms, 231354ms total)
T0AC8 176637:820 JLINK_GetNumBPUnits(Type = 0xFFFFFF00)  returns 0x06 (0000ms, 231354ms total)
T0AC8 176637:820 JLINK_GetNumBPUnits(Type = 0xF0)  returns 0x2000 (0000ms, 231354ms total)
T0AC8 176637:820 JLINK_GetNumWPUnits()  returns 0x04 (0000ms, 231354ms total)
T0AC8 176637:820 JLINK_GetSpeed()  returns 0xFA0 (0000ms, 231354ms total)
T0AC8 176637:820 JLINK_ReadMemU32(0xE000E004, 0x0001 Items, ...) -- CPU_ReadMem(4 bytes @ 0xE000E004) - Data: 01 00 00 00  returns 1 (0000ms, 231354ms total)
T0AC8 176637:820 JLINK_ReadMemU32(0xE000E004, 0x0001 Items, ...) -- CPU_ReadMem(4 bytes @ 0xE000E004) - Data: 01 00 00 00  returns 1 (0001ms, 231355ms total)
T0AC8 176637:821 JLINK_WriteMemEx(0xE0001000, 0x001C Bytes, ..., Flags = 0x02000004) - Data: 01 00 00 00 00 00 00 00 00 00 00 00 00 00 00 00 ... -- CPU_WriteMem(28 bytes @ 0xE0001000)  returns 0x1C (0001ms, 231356ms total)
T0AC8 176637:822 JLINK_ReadReg(R15 (PC))  returns 0x08000188 (0000ms, 231356ms total)
T0AC8 176637:822 JLINK_ReadReg(XPSR)  returns 0x01000000 (0000ms, 231356ms total)
T0AC8 176637:828 JLINK_ReadMemEx(0xE0001004, 0x0004 Bytes, ..., Flags = 0x02000000) - Data: 00 00 00 00  returns 0x04 (0000ms, 231356ms total)
T0AC8 176637:899 JLINK_SetResetType(JLINKARM_CM3_RESET_TYPE_NORMAL)  returns JLINKARM_CM3_RESET_TYPE_NORMAL (0000ms, 231356ms total)
T0AC8 176637:899 JLINK_Reset() -- CPU_WriteMem(4 bytes @ 0xE000EDF0) -- CPU_WriteMem(4 bytes @ 0xE000EDFC)Reset: Halt core after reset via DEMCR.VC_CORERESET. >0x35 TIF>Reset: Reset device via AIRCR.SYSRESETREQ. -- CPU_WriteMem(4 bytes @ 0xE000ED0C) >0x0D TIF> >0x28 TIF> -- CPU_ReadMem(4 bytes @ 0xE000EDF0) -- CPU_ReadMem(4 bytes @ 0xE000EDF0) -- CPU_WriteMem(4 bytes @ 0xE000EDF0) -- CPU_WriteMem(4 bytes @ 0xE000EDFC) -- CPU_ReadMem(4 bytes @ 0xE000EDF0) -- CPU_WriteMem(4 bytes @ 0xE0002000)
 -- CPU_ReadMem(4 bytes @ 0xE000EDFC) -- CPU_ReadMem(4 bytes @ 0xE0001000) (0071ms, 231427ms total)
T0AC8 176637:970 JLINK_ReadReg(R15 (PC))  returns 0x08000188 (0000ms, 231427ms total)
T0AC8 176637:970 JLINK_ReadReg(XPSR)  returns 0x01000000 (0000ms, 231427ms total)
T0AC8 176637:970 JLINK_ReadMemEx(0x08000188, 0x003C Bytes, ..., Flags = 0x02000000) -- CPU_ReadMem(128 bytes @ 0x08000180) -- Updating C cache (128 bytes @ 0x08000180) -- Read from C cache (60 bytes @ 0x08000188) - Data: 09 48 80 47 09 48 00 47 FE E7 FE E7 FE E7 FE E7 ...  returns 0x3C (0002ms, 231429ms total)
T0AC8 176637:972 JLINK_ReadMemEx(0x08000188, 0x0002 Bytes, ..., Flags = 0x02000000) -- Read from C cache (2 bytes @ 0x08000188) - Data: 09 48  returns 0x02 (0000ms, 231429ms total)
T0AC8 176637:972 JLINK_ReadMemEx(0x0800018A, 0x0002 Bytes, ..., Flags = 0x02000000) -- Read from C cache (2 bytes @ 0x0800018A) - Data: 80 47  returns 0x02 (0000ms, 231429ms total)
T0AC8 176637:972 JLINK_ReadMemEx(0x0800018A, 0x0002 Bytes, ..., Flags = 0x02000000) -- Read from C cache (2 bytes @ 0x0800018A) - Data: 80 47  returns 0x02 (0000ms, 231429ms total)
T0AC8 176637:972 JLINK_ReadMemEx(0x0800018C, 0x003C Bytes, ..., Flags = 0x02000000) -- Read from C cache (60 bytes @ 0x0800018C) - Data: 09 48 00 47 FE E7 FE E7 FE E7 FE E7 FE E7 FE E7 ...  returns 0x3C (0000ms, 231429ms total)
T0AC8 176637:972 JLINK_ReadMemEx(0x0800018C, 0x0002 Bytes, ..., Flags = 0x02000000) -- Read from C cache (2 bytes @ 0x0800018C) - Data: 09 48  returns 0x02 (0000ms, 231429ms total)
T0AC8 176638:217 JLINK_ReadMemEx(0x40006400, 0x001C Bytes, ..., Flags = 0x02000004) -- CPU_ReadMem(28 bytes @ 0x40006400) - Data: 02 00 01 00 0A 0C 00 00 00 00 00 1C 00 00 00 00 ...  returns 0x1C (0000ms, 231429ms total)
T0AC8 176638:217 JLINK_ReadMemEx(0x4000641C, 0x0004 Bytes, ..., Flags = 0x02000004) -- CPU_ReadMem(4 bytes @ 0x4000641C) - Data: 00 00 23 01  returns 0x04 (0001ms, 231430ms total)
T0AC8 176638:218 JLINK_ReadMemEx(0x40006580, 0x004C Bytes, ..., Flags = 0x02000004) -- CPU_ReadMem(76 bytes @ 0x40006580) - Data: 8A A2 3F 12 46 10 7C 13 D5 73 73 50 C2 B8 EC BB ...  returns 0x4C (0001ms, 231431ms total)
T0AC8 176638:219 JLINK_ReadMemEx(0x400065CC, 0x0004 Bytes, ..., Flags = 0x02000004) -- CPU_ReadMem(4 bytes @ 0x400065CC) - Data: 04 45 35 41  returns 0x04 (0001ms, 231432ms total)
T0AC8 176638:220 JLINK_ReadMemEx(0x40006600, 0x0004 Bytes, ..., Flags = 0x02000004) -- CPU_ReadMem(4 bytes @ 0x40006600) - Data: 01 0E 1C 2A  returns 0x04 (0001ms, 231433ms total)
T0AC8 176638:221 JLINK_ReadMemEx(0x40006604, 0x0004 Bytes, ..., Flags = 0x02000004) -- CPU_ReadMem(4 bytes @ 0x40006604) - Data: 00 00 00 00  returns 0x04 (0000ms, 231433ms total)
T0AC8 176638:221 JLINK_ReadMemEx(0x4000660C, 0x0004 Bytes, ..., Flags = 0x02000004) -- CPU_ReadMem(4 bytes @ 0x4000660C) - Data: 00 00 00 00  returns 0x04 (0001ms, 231434ms total)
T0AC8 176638:222 JLINK_ReadMemEx(0x40006614, 0x0004 Bytes, ..., Flags = 0x02000004) -- CPU_ReadMem(4 bytes @ 0x40006614) - Data: 00 00 00 00  returns 0x04 (0000ms, 231434ms total)
T0AC8 176638:222 JLINK_ReadMemEx(0x4000661C, 0x0004 Bytes, ..., Flags = 0x02000004) -- CPU_ReadMem(4 bytes @ 0x4000661C) - Data: 00 00 00 00  returns 0x04 (0001ms, 231435ms total)
T0AC8 176638:223 JLINK_ReadMemEx(0x40006640, 0x006C Bytes, ..., Flags = 0x02000004) -- CPU_ReadMem(108 bytes @ 0x40006640) - Data: 00 00 00 00 00 00 00 00 B1 04 DC DB BD 32 BA A7 ...  returns 0x6C (0002ms, 231437ms total)
T0AC8 176638:225 JLINK_ReadMemEx(0x400066AC, 0x0004 Bytes, ..., Flags = 0x02000004) -- CPU_ReadMem(4 bytes @ 0x400066AC) - Data: C4 68 A3 9F  returns 0x04 (0000ms, 231437ms total)
T0AC8 176641:293 JLINK_ReadMemEx(0x08000188, 0x003C Bytes, ..., Flags = 0x02000000) -- Read from C cache (60 bytes @ 0x08000188) - Data: 09 48 80 47 09 48 00 47 FE E7 FE E7 FE E7 FE E7 ...  returns 0x3C (0000ms, 231437ms total)
T0AC8 176641:293 JLINK_ReadMemEx(0x08000188, 0x0002 Bytes, ..., Flags = 0x02000000) -- Read from C cache (2 bytes @ 0x08000188) - Data: 09 48  returns 0x02 (0000ms, 231437ms total)
T0AC8 176641:293 JLINK_ReadMemEx(0x0800018A, 0x0002 Bytes, ..., Flags = 0x02000000) -- Read from C cache (2 bytes @ 0x0800018A) - Data: 80 47  returns 0x02 (0000ms, 231437ms total)
T0AC8 176641:293 JLINK_ReadMemEx(0x0800018A, 0x0002 Bytes, ..., Flags = 0x02000000) -- Read from C cache (2 bytes @ 0x0800018A) - Data: 80 47  returns 0x02 (0000ms, 231437ms total)
T0AC8 176641:293 JLINK_ReadMemEx(0x0800018C, 0x003C Bytes, ..., Flags = 0x02000000) -- Read from C cache (60 bytes @ 0x0800018C) - Data: 09 48 00 47 FE E7 FE E7 FE E7 FE E7 FE E7 FE E7 ...  returns 0x3C (0000ms, 231437ms total)
T0AC8 176641:293 JLINK_ReadMemEx(0x0800018C, 0x0002 Bytes, ..., Flags = 0x02000000) -- Read from C cache (2 bytes @ 0x0800018C) - Data: 09 48  returns 0x02 (0000ms, 231437ms total)
T0AC8 176641:726 JLINK_ReadReg(R0)  returns 0x0000C41F (0001ms, 231438ms total)
T0AC8 176641:727 JLINK_ReadReg(R1)  returns 0x00002710 (0000ms, 231438ms total)
T0AC8 176641:727 JLINK_ReadReg(R2)  returns 0x00000000 (0000ms, 231438ms total)
T0AC8 176641:727 JLINK_ReadReg(R3)  returns 0x0000000A (0000ms, 231438ms total)
T0AC8 176641:727 JLINK_ReadReg(R4)  returns 0x00000000 (0000ms, 231438ms total)
T0AC8 176641:727 JLINK_ReadReg(R5)  returns 0x200028FC (0000ms, 231438ms total)
T0AC8 176641:727 JLINK_ReadReg(R6)  returns 0x00000000 (0000ms, 231438ms total)
T0AC8 176641:727 JLINK_ReadReg(R7)  returns 0x00000000 (0000ms, 231438ms total)
T0AC8 176641:727 JLINK_ReadReg(R8)  returns 0x00000000 (0000ms, 231438ms total)
T0AC8 176641:727 JLINK_ReadReg(R9)  returns 0x20000160 (0000ms, 231438ms total)
T0AC8 176641:727 JLINK_ReadReg(R10)  returns 0x08001B94 (0000ms, 231438ms total)
T0AC8 176641:727 JLINK_ReadReg(R11)  returns 0x00000000 (0000ms, 231438ms total)
T0AC8 176641:727 JLINK_ReadReg(R12)  returns 0x00000004 (0000ms, 231438ms total)
T0AC8 176641:727 JLINK_ReadReg(R13 (SP))  returns 0x20002F60 (0000ms, 231438ms total)
T0AC8 176641:727 JLINK_ReadReg(R14)  returns 0xFFFFFFFF (0000ms, 231438ms total)
T0AC8 176641:727 JLINK_ReadReg(R15 (PC))  returns 0x08000188 (0000ms, 231438ms total)
T0AC8 176641:727 JLINK_ReadReg(XPSR)  returns 0x01000000 (0000ms, 231438ms total)
T0AC8 176641:727 JLINK_ReadReg(MSP)  returns 0x20002F60 (0000ms, 231438ms total)
T0AC8 176641:727 JLINK_ReadReg(PSP)  returns 0x20001000 (0000ms, 231438ms total)
T0AC8 176641:727 JLINK_ReadReg(CFBP)  returns 0x00000000 (0000ms, 231438ms total)
T0AC8 176641:792 JLINK_ReadMemEx(0x20000004, 0x0001 Bytes, ..., Flags = 0x02000000) -- CPU_ReadMem(64 bytes @ 0x20000000) -- Updating C cache (64 bytes @ 0x20000000) -- Read from C cache (1 bytes @ 0x20000004) - Data: 04  returns 0x01 (0001ms, 231439ms total)
T0AC8 176641:793 JLINK_ReadMemEx(0x20000004, 0x0001 Bytes, ..., Flags = 0x02000000) -- Read from C cache (1 bytes @ 0x20000004) - Data: 04  returns 0x01 (0000ms, 231439ms total)
T0AC8 176641:794 JLINK_ReadMemEx(0x20000004, 0x0001 Bytes, ..., Flags = 0x02000000) -- Read from C cache (1 bytes @ 0x20000004) - Data: 04  returns 0x01 (0000ms, 231439ms total)
T0AC8 176641:800 JLINK_ReadMemEx(0x20002834, 0x0020 Bytes, ..., Flags = 0x02000000) -- CPU_ReadMem(128 bytes @ 0x20002800) -- Updating C cache (128 bytes @ 0x20002800) -- Read from C cache (32 bytes @ 0x20002834) - Data: 55 A1 55 A1 00 00 00 00 00 00 00 00 00 00 00 00 ...  returns 0x20 (0002ms, 231441ms total)
T7DF4 176641:844 JLINK_ReadMemEx(0x08000188, 0x0002 Bytes, ..., Flags = 0x02000000) -- Read from C cache (2 bytes @ 0x08000188) - Data: 09 48  returns 0x02 (0000ms, 231441ms total)
T7DF4 176641:844 JLINK_SetBPEx(Addr = 0x08001738, Type = 0xFFFFFFF2)  returns 0x00000001 (0000ms, 231441ms total)
T7DF4 176641:844 JLINK_SetBPEx(Addr = 0x0800152E, Type = 0xFFFFFFF2)  returns 0x00000002 (0000ms, 231441ms total)
T7DF4 176641:844 JLINK_SetBPEx(Addr = 0x08000466, Type = 0xFFFFFFF2)  returns 0x00000003 (0000ms, 231441ms total)
T7DF4 176641:844 JLINK_SetBPEx(Addr = 0x0800120C, Type = 0xFFFFFFF2)  returns 0x00000004 (0000ms, 231441ms total)
T7DF4 176641:844 JLINK_SetBPEx(Addr = 0x08001204, Type = 0xFFFFFFF2)  returns 0x00000005 (0000ms, 231441ms total)
T7DF4 176641:844 JLINK_Go() -- CPU_WriteMem(4 bytes @ 0xE0002000) -- CPU_WriteMem(4 bytes @ 0xE0002000) -- CPU_WriteMem(4 bytes @ 0xE0002000) -- CPU_WriteMem(4 bytes @ 0xE0002000) -- CPU_WriteMem(4 bytes @ 0xE0002000) -- CPU_ReadMem(4 bytes @ 0xE0001000) -- CPU_WriteMem(4 bytes @ 0xE0002008) -- CPU_WriteMem(4 bytes @ 0xE000200C) -- CPU_WriteMem(4 bytes @ 0xE0002010) -- CPU_WriteMem(4 bytes @ 0xE0002014) -- CPU_WriteMem(4 bytes @ 0xE0002018) -- CPU_WriteMem(4 bytes @ 0xE000201C)
 -- CPU_WriteMem(4 bytes @ 0xE0001004) (0007ms, 231448ms total)
T7DF4 176641:952 JLINK_IsHalted()  returns TRUE (0003ms, 231451ms total)
T7DF4 176641:955 JLINK_Halt()  returns 0x00 (0000ms, 231448ms total)
T7DF4 176641:955 JLINK_IsHalted()  returns TRUE (0000ms, 231448ms total)
T7DF4 176641:955 JLINK_IsHalted()  returns TRUE (0000ms, 231448ms total)
T7DF4 176641:955 JLINK_IsHalted()  returns TRUE (0000ms, 231448ms total)
T7DF4 176641:955 JLINK_ReadReg(R15 (PC))  returns 0x08001738 (0000ms, 231448ms total)
T7DF4 176641:955 JLINK_ReadReg(XPSR)  returns 0x21000000 (0000ms, 231448ms total)
T7DF4 176641:955 JLINK_ClrBPEx(BPHandle = 0x00000001)  returns 0x00 (0000ms, 231448ms total)
T7DF4 176641:955 JLINK_ClrBPEx(BPHandle = 0x00000002)  returns 0x00 (0000ms, 231448ms total)
T7DF4 176641:955 JLINK_ClrBPEx(BPHandle = 0x00000003)  returns 0x00 (0000ms, 231448ms total)
T7DF4 176641:955 JLINK_ClrBPEx(BPHandle = 0x00000004)  returns 0x00 (0000ms, 231448ms total)
T7DF4 176641:955 JLINK_ClrBPEx(BPHandle = 0x00000005)  returns 0x00 (0001ms, 231449ms total)
T7DF4 176641:956 JLINK_ReadMemU32(0xE000ED30, 0x0001 Items, ...) -- CPU_ReadMem(4 bytes @ 0xE000ED30) - Data: 03 00 00 00  returns 1 (0000ms, 231449ms total)
T7DF4 176641:956 JLINK_ReadMemU32(0xE0001028, 0x0001 Items, ...) -- CPU_ReadMem(4 bytes @ 0xE0001028) - Data: 00 00 00 00  returns 1 (0001ms, 231450ms total)
T7DF4 176641:957 JLINK_ReadMemU32(0xE0001038, 0x0001 Items, ...) -- CPU_ReadMem(4 bytes @ 0xE0001038) - Data: 00 02 00 00  returns 1 (0000ms, 231450ms total)
T7DF4 176641:957 JLINK_ReadMemU32(0xE0001048, 0x0001 Items, ...) -- CPU_ReadMem(4 bytes @ 0xE0001048) - Data: 00 00 00 00  returns 1 (0001ms, 231451ms total)
T7DF4 176641:958 JLINK_ReadMemU32(0xE0001058, 0x0001 Items, ...) -- CPU_ReadMem(4 bytes @ 0xE0001058) - Data: 00 00 00 00  returns 1 (0001ms, 231452ms total)
T7DF4 176641:959 JLINK_ReadReg(R0)  returns 0x20002960 (0000ms, 231452ms total)
T7DF4 176641:959 JLINK_ReadReg(R1)  returns 0x20002B60 (0000ms, 231452ms total)
T7DF4 176641:959 JLINK_ReadReg(R2)  returns 0x20002B60 (0000ms, 231452ms total)
T7DF4 176641:959 JLINK_ReadReg(R3)  returns 0x20002B60 (0000ms, 231452ms total)
T7DF4 176641:959 JLINK_ReadReg(R4)  returns 0x00000000 (0000ms, 231452ms total)
T7DF4 176641:959 JLINK_ReadReg(R5)  returns 0x200028FC (0000ms, 231452ms total)
T7DF4 176641:959 JLINK_ReadReg(R6)  returns 0x00000000 (0000ms, 231452ms total)
T7DF4 176641:959 JLINK_ReadReg(R7)  returns 0x00000000 (0000ms, 231452ms total)
T7DF4 176641:959 JLINK_ReadReg(R8)  returns 0x00000000 (0000ms, 231452ms total)
T7DF4 176641:959 JLINK_ReadReg(R9)  returns 0x20000160 (0000ms, 231452ms total)
T7DF4 176641:959 JLINK_ReadReg(R10)  returns 0x08001B94 (0000ms, 231452ms total)
T7DF4 176641:959 JLINK_ReadReg(R11)  returns 0x00000000 (0000ms, 231452ms total)
T7DF4 176641:959 JLINK_ReadReg(R12)  returns 0x2000293C (0000ms, 231452ms total)
T7DF4 176641:959 JLINK_ReadReg(R13 (SP))  returns 0x20002F60 (0000ms, 231452ms total)
T7DF4 176641:959 JLINK_ReadReg(R14)  returns 0x08000177 (0000ms, 231452ms total)
T7DF4 176641:959 JLINK_ReadReg(R15 (PC))  returns 0x08001738 (0000ms, 231452ms total)
T7DF4 176641:959 JLINK_ReadReg(XPSR)  returns 0x21000000 (0000ms, 231452ms total)
T7DF4 176641:959 JLINK_ReadReg(MSP)  returns 0x20002F60 (0001ms, 231453ms total)
T7DF4 176641:960 JLINK_ReadReg(PSP)  returns 0x20001000 (0000ms, 231453ms total)
T7DF4 176641:960 JLINK_ReadReg(CFBP)  returns 0x00000000 (0000ms, 231453ms total)
T0AC8 176641:961 JLINK_ReadMemEx(0x20000004, 0x0001 Bytes, ..., Flags = 0x02000000) -- CPU_ReadMem(64 bytes @ 0x20000000) -- Updating C cache (64 bytes @ 0x20000000) -- Read from C cache (1 bytes @ 0x20000004) - Data: 00  returns 0x01 (0002ms, 231455ms total)
T0AC8 176641:963 JLINK_ReadMemEx(0x20002834, 0x0020 Bytes, ..., Flags = 0x02000000) -- CPU_ReadMem(128 bytes @ 0x20002800) -- Updating C cache (128 bytes @ 0x20002800) -- Read from C cache (32 bytes @ 0x20002834) - Data: 00 00 00 00 00 00 00 00 00 00 00 00 00 00 00 00 ...  returns 0x20 (0002ms, 231457ms total)
T0AC8 176641:966 JLINK_ReadMemEx(0x40006400, 0x001C Bytes, ..., Flags = 0x02000004) -- CPU_ReadMem(28 bytes @ 0x40006400) - Data: 02 00 01 00 0A 0C 00 00 00 00 00 1C 00 00 00 00 ...  returns 0x1C (0001ms, 231458ms total)
T0AC8 176641:967 JLINK_ReadMemEx(0x4000641C, 0x0004 Bytes, ..., Flags = 0x02000004) -- CPU_ReadMem(4 bytes @ 0x4000641C) - Data: 00 00 23 01  returns 0x04 (0000ms, 231458ms total)
T0AC8 176641:967 JLINK_ReadMemEx(0x40006580, 0x004C Bytes, ..., Flags = 0x02000004) -- CPU_ReadMem(76 bytes @ 0x40006580) - Data: 8A A2 3F 12 46 10 7C 13 D5 73 73 50 C2 B8 EC BB ...  returns 0x4C (0002ms, 231460ms total)
T0AC8 176641:969 JLINK_ReadMemEx(0x400065CC, 0x0004 Bytes, ..., Flags = 0x02000004) -- CPU_ReadMem(4 bytes @ 0x400065CC) - Data: 04 45 35 41  returns 0x04 (0000ms, 231460ms total)
T0AC8 176641:969 JLINK_ReadMemEx(0x40006600, 0x0004 Bytes, ..., Flags = 0x02000004) -- CPU_ReadMem(4 bytes @ 0x40006600) - Data: 01 0E 1C 2A  returns 0x04 (0001ms, 231461ms total)
T0AC8 176641:970 JLINK_ReadMemEx(0x40006604, 0x0004 Bytes, ..., Flags = 0x02000004) -- CPU_ReadMem(4 bytes @ 0x40006604) - Data: 00 00 00 00  returns 0x04 (0001ms, 231462ms total)
T0AC8 176641:971 JLINK_ReadMemEx(0x4000660C, 0x0004 Bytes, ..., Flags = 0x02000004) -- CPU_ReadMem(4 bytes @ 0x4000660C) - Data: 00 00 00 00  returns 0x04 (0000ms, 231462ms total)
T0AC8 176641:971 JLINK_ReadMemEx(0x40006614, 0x0004 Bytes, ..., Flags = 0x02000004) -- CPU_ReadMem(4 bytes @ 0x40006614) - Data: 00 00 00 00  returns 0x04 (0001ms, 231463ms total)
T0AC8 176641:972 JLINK_ReadMemEx(0x4000661C, 0x0004 Bytes, ..., Flags = 0x02000004) -- CPU_ReadMem(4 bytes @ 0x4000661C) - Data: 00 00 00 00  returns 0x04 (0001ms, 231464ms total)
T0AC8 176641:973 JLINK_ReadMemEx(0x40006640, 0x006C Bytes, ..., Flags = 0x02000004) -- CPU_ReadMem(108 bytes @ 0x40006640) - Data: 00 00 00 00 00 00 00 00 B1 04 DC DB BD 32 BA A7 ...  returns 0x6C (0001ms, 231465ms total)
T0AC8 176641:974 JLINK_ReadMemEx(0x400066AC, 0x0004 Bytes, ..., Flags = 0x02000004) -- CPU_ReadMem(4 bytes @ 0x400066AC) - Data: C4 68 A3 9F  returns 0x04 (0001ms, 231466ms total)
T0AC8 176641:979 JLINK_ReadMemEx(0x08001738, 0x003C Bytes, ..., Flags = 0x02000000) -- CPU_ReadMem(128 bytes @ 0x08001700) -- Updating C cache (128 bytes @ 0x08001700) -- Read from C cache (60 bytes @ 0x08001738) - Data: 86 B0 FF F7 CB FF 01 21 08 46 FF F7 F7 FB 04 20 ...  returns 0x3C (0002ms, 231468ms total)
T0AC8 176641:981 JLINK_ReadMemEx(0x08001738, 0x0002 Bytes, ..., Flags = 0x02000000) -- Read from C cache (2 bytes @ 0x08001738) - Data: 86 B0  returns 0x02 (0000ms, 231468ms total)
T0AC8 176641:981 JLINK_ReadMemEx(0x0800173A, 0x0002 Bytes, ..., Flags = 0x02000000) -- Read from C cache (2 bytes @ 0x0800173A) - Data: FF F7  returns 0x02 (0000ms, 231468ms total)
T7DF4 176643:332 JLINK_ReadMemEx(0x08001738, 0x0002 Bytes, ..., Flags = 0x02000000) -- Read from C cache (2 bytes @ 0x08001738) - Data: 86 B0  returns 0x02 (0000ms, 231468ms total)
T7DF4 176643:332 JLINK_SetBPEx(Addr = 0x0800152E, Type = 0xFFFFFFF2)  returns 0x00000006 (0000ms, 231468ms total)
T7DF4 176643:332 JLINK_SetBPEx(Addr = 0x08000466, Type = 0xFFFFFFF2)  returns 0x00000007 (0000ms, 231468ms total)
T7DF4 176643:332 JLINK_SetBPEx(Addr = 0x0800120C, Type = 0xFFFFFFF2)  returns 0x00000008 (0000ms, 231468ms total)
T7DF4 176643:332 JLINK_SetBPEx(Addr = 0x08001204, Type = 0xFFFFFFF2)  returns 0x00000009 (0000ms, 231468ms total)
T7DF4 176643:332 JLINK_Go() -- CPU_WriteMem(4 bytes @ 0xE0002000) -- CPU_WriteMem(4 bytes @ 0xE0002000) -- CPU_WriteMem(4 bytes @ 0xE0002000) -- CPU_WriteMem(4 bytes @ 0xE0002000) -- CPU_ReadMem(4 bytes @ 0xE0001000) -- CPU_WriteMem(4 bytes @ 0xE0002008) -- CPU_WriteMem(4 bytes @ 0xE000200C) -- CPU_WriteMem(4 bytes @ 0xE0002010) -- CPU_WriteMem(4 bytes @ 0xE0002014) -- CPU_WriteMem(4 bytes @ 0xE0002018) (0006ms, 231474ms total)
T7DF4 176643:439 JLINK_IsHalted()  returns FALSE (0000ms, 231474ms total)
T7DF4 176643:540 JLINK_IsHalted()  returns FALSE (0000ms, 231474ms total)
T7DF4 176643:641 JLINK_IsHalted()  returns FALSE (0000ms, 231474ms total)
T7DF4 176643:742 JLINK_IsHalted()  returns FALSE (0000ms, 231474ms total)
T7DF4 176643:842 JLINK_IsHalted()  returns FALSE (0000ms, 231474ms total)
T7DF4 176643:944 JLINK_ReadMemU32(0xE0001004, 0x0001 Items, ...) -- CPU_ReadMem(4 bytes @ 0xE0001004) - Data: 07 71 9A 02  returns 1 (0000ms, 231474ms total)
T0AC8 176643:945 JLINK_ReadMemEx(0x20000004, 0x0001 Bytes, ..., Flags = 0x02000000) -- CPU_ReadMem(1 bytes @ 0x20000004) - Data: 00  returns 0x01 (0000ms, 231474ms total)
T0AC8 176643:946 JLINK_ReadMemEx(0x20002834, 0x0020 Bytes, ..., Flags = 0x02000000) -- CPU_ReadMem(32 bytes @ 0x20002834) - Data: 00 00 00 00 00 00 00 00 00 00 00 00 00 00 00 00 ...  returns 0x20 (0000ms, 231474ms total)
T0AC8 176643:947 JLINK_ReadMemEx(0x40006400, 0x001C Bytes, ..., Flags = 0x02000004) -- CPU_ReadMem(28 bytes @ 0x40006400) - Data: 04 00 01 00 00 0C 00 00 00 00 00 1C 00 00 00 00 ...  returns 0x1C (0000ms, 231474ms total)
T0AC8 176643:947 JLINK_ReadMemEx(0x4000641C, 0x0004 Bytes, ..., Flags = 0x02000004) -- CPU_ReadMem(4 bytes @ 0x4000641C) - Data: 08 00 05 00  returns 0x04 (0001ms, 231475ms total)
T0AC8 176643:948 JLINK_ReadMemEx(0x40006580, 0x004C Bytes, ..., Flags = 0x02000004) -- CPU_ReadMem(76 bytes @ 0x40006580) - Data: 8A A2 3F 12 46 10 7C 13 D5 73 73 50 C2 B8 EC BB ...  returns 0x4C (0001ms, 231476ms total)
T0AC8 176643:949 JLINK_ReadMemEx(0x400065CC, 0x0004 Bytes, ..., Flags = 0x02000004) -- CPU_ReadMem(4 bytes @ 0x400065CC) - Data: 04 45 35 41  returns 0x04 (0001ms, 231477ms total)
T0AC8 176643:950 JLINK_ReadMemEx(0x40006600, 0x0004 Bytes, ..., Flags = 0x02000004) -- CPU_ReadMem(4 bytes @ 0x40006600) - Data: 00 0E 1C 2A  returns 0x04 (0000ms, 231477ms total)
T0AC8 176643:950 JLINK_ReadMemEx(0x40006604, 0x0004 Bytes, ..., Flags = 0x02000004) -- CPU_ReadMem(4 bytes @ 0x40006604) - Data: 00 00 00 00  returns 0x04 (0001ms, 231478ms total)
T0AC8 176643:951 JLINK_ReadMemEx(0x4000660C, 0x0004 Bytes, ..., Flags = 0x02000004) -- CPU_ReadMem(4 bytes @ 0x4000660C) - Data: 01 00 00 00  returns 0x04 (0000ms, 231478ms total)
T0AC8 176643:951 JLINK_ReadMemEx(0x40006614, 0x0004 Bytes, ..., Flags = 0x02000004) -- CPU_ReadMem(4 bytes @ 0x40006614) - Data: 00 00 00 00  returns 0x04 (0001ms, 231479ms total)
T0AC8 176643:952 JLINK_ReadMemEx(0x4000661C, 0x0004 Bytes, ..., Flags = 0x02000004) -- CPU_ReadMem(4 bytes @ 0x4000661C) - Data: 01 00 00 00  returns 0x04 (0001ms, 231480ms total)
T0AC8 176643:953 JLINK_ReadMemEx(0x40006640, 0x006C Bytes, ..., Flags = 0x02000004) -- CPU_ReadMem(108 bytes @ 0x40006640) - Data: 00 00 00 00 00 00 00 00 B1 04 DC DB BD 32 BA A7 ...  returns 0x6C (0002ms, 231482ms total)
T0AC8 176643:955 JLINK_ReadMemEx(0x400066AC, 0x0004 Bytes, ..., Flags = 0x02000004) -- CPU_ReadMem(4 bytes @ 0x400066AC) - Data: C4 68 A3 9F  returns 0x04 (0000ms, 231482ms total)
T7DF4 176643:977 JLINK_IsHalted()  returns FALSE (0001ms, 231483ms total)
T7DF4 176644:079 JLINK_IsHalted()  returns FALSE (0000ms, 231482ms total)
T7DF4 176644:180 JLINK_IsHalted()  returns FALSE (0000ms, 231482ms total)
T7DF4 176644:281 JLINK_IsHalted()  returns FALSE (0000ms, 231482ms total)
T7DF4 176644:382 JLINK_IsHalted()  returns FALSE (0000ms, 231482ms total)
T7DF4 176644:483 JLINK_ReadMemU32(0xE0001004, 0x0001 Items, ...) - Data: 07 71 9A 02  returns 1 (0000ms, 231482ms total)
T0AC8 176644:483 JLINK_ReadMemEx(0x20000004, 0x0001 Bytes, ..., Flags = 0x02000000) -- CPU_ReadMem(1 bytes @ 0x20000004) - Data: 00  returns 0x01 (0000ms, 231482ms total)
T0AC8 176644:483 JLINK_ReadMemEx(0x20002834, 0x0020 Bytes, ..., Flags = 0x02000000) -- CPU_ReadMem(32 bytes @ 0x20002834) - Data: 00 00 00 00 00 00 00 00 00 00 00 00 00 00 00 00 ...  returns 0x20 (0001ms, 231483ms total)
T0AC8 176644:484 JLINK_ReadMemEx(0x40006400, 0x001C Bytes, ..., Flags = 0x02000004) -- CPU_ReadMem(28 bytes @ 0x40006400) - Data: 04 00 01 00 00 0C 00 00 00 00 00 1C 00 00 00 00 ...  returns 0x1C (0001ms, 231484ms total)
T0AC8 176644:485 JLINK_ReadMemEx(0x4000641C, 0x0004 Bytes, ..., Flags = 0x02000004) -- CPU_ReadMem(4 bytes @ 0x4000641C) - Data: 08 00 05 00  returns 0x04 (0001ms, 231485ms total)
T0AC8 176644:486 JLINK_ReadMemEx(0x40006580, 0x004C Bytes, ..., Flags = 0x02000004) -- CPU_ReadMem(76 bytes @ 0x40006580) - Data: 8A A2 3F 12 46 10 7C 13 D5 73 73 50 C2 B8 EC BB ...  returns 0x4C (0001ms, 231486ms total)
T0AC8 176644:487 JLINK_ReadMemEx(0x400065CC, 0x0004 Bytes, ..., Flags = 0x02000004) -- CPU_ReadMem(4 bytes @ 0x400065CC) - Data: 04 45 35 41  returns 0x04 (0001ms, 231487ms total)
T0AC8 176644:488 JLINK_ReadMemEx(0x40006600, 0x0004 Bytes, ..., Flags = 0x02000004) -- CPU_ReadMem(4 bytes @ 0x40006600) - Data: 00 0E 1C 2A  returns 0x04 (0000ms, 231487ms total)
T0AC8 176644:488 JLINK_ReadMemEx(0x40006604, 0x0004 Bytes, ..., Flags = 0x02000004) -- CPU_ReadMem(4 bytes @ 0x40006604) - Data: 00 00 00 00  returns 0x04 (0001ms, 231488ms total)
T0AC8 176644:489 JLINK_ReadMemEx(0x4000660C, 0x0004 Bytes, ..., Flags = 0x02000004) -- CPU_ReadMem(4 bytes @ 0x4000660C) - Data: 01 00 00 00  returns 0x04 (0000ms, 231488ms total)
T0AC8 176644:489 JLINK_ReadMemEx(0x40006614, 0x0004 Bytes, ..., Flags = 0x02000004) -- CPU_ReadMem(4 bytes @ 0x40006614) - Data: 00 00 00 00  returns 0x04 (0001ms, 231489ms total)
T0AC8 176644:490 JLINK_ReadMemEx(0x4000661C, 0x0004 Bytes, ..., Flags = 0x02000004) -- CPU_ReadMem(4 bytes @ 0x4000661C) - Data: 01 00 00 00  returns 0x04 (0000ms, 231489ms total)
T0AC8 176644:490 JLINK_ReadMemEx(0x40006640, 0x006C Bytes, ..., Flags = 0x02000004) -- CPU_ReadMem(108 bytes @ 0x40006640) - Data: 00 00 00 00 00 00 00 00 B1 04 DC DB BD 32 BA A7 ...  returns 0x6C (0002ms, 231491ms total)
T0AC8 176644:492 JLINK_ReadMemEx(0x400066AC, 0x0004 Bytes, ..., Flags = 0x02000004) -- CPU_ReadMem(4 bytes @ 0x400066AC) - Data: C4 68 A3 9F  returns 0x04 (0001ms, 231492ms total)
T7DF4 176644:494 JLINK_IsHalted()  returns FALSE (0000ms, 231492ms total)
T7DF4 176644:595 JLINK_IsHalted()  returns FALSE (0000ms, 231492ms total)
T7DF4 176644:697 JLINK_IsHalted()  returns FALSE (0000ms, 231492ms total)
T7DF4 176644:798 JLINK_IsHalted()  returns FALSE (0000ms, 231492ms total)
T7DF4 176644:900 JLINK_IsHalted()  returns FALSE (0000ms, 231492ms total)
T7DF4 176645:001 JLINK_ReadMemU32(0xE0001004, 0x0001 Items, ...) - Data: 07 71 9A 02  returns 1 (0000ms, 231492ms total)
T0AC8 176645:001 JLINK_ReadMemEx(0x20000004, 0x0001 Bytes, ..., Flags = 0x02000000) -- CPU_ReadMem(1 bytes @ 0x20000004) - Data: 00  returns 0x01 (0000ms, 231492ms total)
T0AC8 176645:001 JLINK_ReadMemEx(0x20002834, 0x0020 Bytes, ..., Flags = 0x02000000) -- CPU_ReadMem(32 bytes @ 0x20002834) - Data: 00 00 00 00 00 00 00 00 00 00 00 00 00 00 00 00 ...  returns 0x20 (0001ms, 231493ms total)
T0AC8 176645:002 JLINK_ReadMemEx(0x40006400, 0x001C Bytes, ..., Flags = 0x02000004) -- CPU_ReadMem(28 bytes @ 0x40006400) - Data: 04 00 01 00 00 0C 00 00 00 00 00 1C 00 00 00 00 ...  returns 0x1C (0001ms, 231494ms total)
T0AC8 176645:003 JLINK_ReadMemEx(0x4000641C, 0x0004 Bytes, ..., Flags = 0x02000004) -- CPU_ReadMem(4 bytes @ 0x4000641C) - Data: 08 00 05 00  returns 0x04 (0001ms, 231495ms total)
T0AC8 176645:004 JLINK_ReadMemEx(0x40006580, 0x004C Bytes, ..., Flags = 0x02000004) -- CPU_ReadMem(76 bytes @ 0x40006580) - Data: 8A A2 3F 12 46 10 7C 13 D5 73 73 50 C2 B8 EC BB ...  returns 0x4C (0001ms, 231496ms total)
T0AC8 176645:005 JLINK_ReadMemEx(0x400065CC, 0x0004 Bytes, ..., Flags = 0x02000004) -- CPU_ReadMem(4 bytes @ 0x400065CC) - Data: 04 45 35 41  returns 0x04 (0001ms, 231497ms total)
T0AC8 176645:006 JLINK_ReadMemEx(0x40006600, 0x0004 Bytes, ..., Flags = 0x02000004) -- CPU_ReadMem(4 bytes @ 0x40006600) - Data: 00 0E 1C 2A  returns 0x04 (0000ms, 231497ms total)
T0AC8 176645:006 JLINK_ReadMemEx(0x40006604, 0x0004 Bytes, ..., Flags = 0x02000004) -- CPU_ReadMem(4 bytes @ 0x40006604) - Data: 00 00 00 00  returns 0x04 (0001ms, 231498ms total)
T0AC8 176645:007 JLINK_ReadMemEx(0x4000660C, 0x0004 Bytes, ..., Flags = 0x02000004) -- CPU_ReadMem(4 bytes @ 0x4000660C) - Data: 01 00 00 00  returns 0x04 (0000ms, 231498ms total)
T0AC8 176645:007 JLINK_ReadMemEx(0x40006614, 0x0004 Bytes, ..., Flags = 0x02000004) -- CPU_ReadMem(4 bytes @ 0x40006614) - Data: 00 00 00 00  returns 0x04 (0001ms, 231499ms total)
T0AC8 176645:008 JLINK_ReadMemEx(0x4000661C, 0x0004 Bytes, ..., Flags = 0x02000004) -- CPU_ReadMem(4 bytes @ 0x4000661C) - Data: 01 00 00 00  returns 0x04 (0000ms, 231499ms total)
T0AC8 176645:008 JLINK_ReadMemEx(0x40006640, 0x006C Bytes, ..., Flags = 0x02000004) -- CPU_ReadMem(108 bytes @ 0x40006640) - Data: 00 00 00 00 00 00 00 00 B1 04 DC DB BD 32 BA A7 ...  returns 0x6C (0002ms, 231501ms total)
T0AC8 176645:010 JLINK_ReadMemEx(0x400066AC, 0x0004 Bytes, ..., Flags = 0x02000004) -- CPU_ReadMem(4 bytes @ 0x400066AC) - Data: C4 68 A3 9F  returns 0x04 (0000ms, 231501ms total)
T7DF4 176645:012 JLINK_IsHalted()  returns FALSE (0000ms, 231501ms total)
T7DF4 176645:114 JLINK_IsHalted()  returns FALSE (0000ms, 231501ms total)
T7DF4 176645:216 JLINK_IsHalted()  returns FALSE (0000ms, 231501ms total)
T7DF4 176645:317 JLINK_IsHalted()  returns FALSE (0000ms, 231501ms total)
T7DF4 176645:418 JLINK_IsHalted()  returns FALSE (0000ms, 231501ms total)
T7DF4 176645:519 JLINK_ReadMemU32(0xE0001004, 0x0001 Items, ...) - Data: 07 71 9A 02  returns 1 (0000ms, 231501ms total)
T0AC8 176645:519 JLINK_ReadMemEx(0x20000004, 0x0001 Bytes, ..., Flags = 0x02000000) -- CPU_ReadMem(1 bytes @ 0x20000004) - Data: 00  returns 0x01 (0001ms, 231502ms total)
T0AC8 176645:520 JLINK_ReadMemEx(0x20002834, 0x0020 Bytes, ..., Flags = 0x02000000) -- CPU_ReadMem(32 bytes @ 0x20002834) - Data: 00 00 00 00 00 00 00 00 00 00 00 00 00 00 00 00 ...  returns 0x20 (0001ms, 231503ms total)
T0AC8 176645:521 JLINK_ReadMemEx(0x40006400, 0x001C Bytes, ..., Flags = 0x02000004) -- CPU_ReadMem(28 bytes @ 0x40006400) - Data: 04 00 01 00 00 0C 00 00 00 00 00 1C 00 00 00 00 ...  returns 0x1C (0001ms, 231504ms total)
T0AC8 176645:522 JLINK_ReadMemEx(0x4000641C, 0x0004 Bytes, ..., Flags = 0x02000004) -- CPU_ReadMem(4 bytes @ 0x4000641C) - Data: 08 00 05 00  returns 0x04 (0001ms, 231505ms total)
T0AC8 176645:523 JLINK_ReadMemEx(0x40006580, 0x004C Bytes, ..., Flags = 0x02000004) -- CPU_ReadMem(76 bytes @ 0x40006580) - Data: 8A A2 3F 12 46 10 7C 13 D5 73 73 50 C2 B8 EC BB ...  returns 0x4C (0001ms, 231506ms total)
T0AC8 176645:524 JLINK_ReadMemEx(0x400065CC, 0x0004 Bytes, ..., Flags = 0x02000004) -- CPU_ReadMem(4 bytes @ 0x400065CC) - Data: 04 45 35 41  returns 0x04 (0001ms, 231507ms total)
T0AC8 176645:525 JLINK_ReadMemEx(0x40006600, 0x0004 Bytes, ..., Flags = 0x02000004) -- CPU_ReadMem(4 bytes @ 0x40006600) - Data: 00 0E 1C 2A  returns 0x04 (0001ms, 231508ms total)
T0AC8 176645:526 JLINK_ReadMemEx(0x40006604, 0x0004 Bytes, ..., Flags = 0x02000004) -- CPU_ReadMem(4 bytes @ 0x40006604) - Data: 00 00 00 00  returns 0x04 (0000ms, 231508ms total)
T0AC8 176645:526 JLINK_ReadMemEx(0x4000660C, 0x0004 Bytes, ..., Flags = 0x02000004) -- CPU_ReadMem(4 bytes @ 0x4000660C) - Data: 01 00 00 00  returns 0x04 (0001ms, 231509ms total)
T0AC8 176645:527 JLINK_ReadMemEx(0x40006614, 0x0004 Bytes, ..., Flags = 0x02000004) -- CPU_ReadMem(4 bytes @ 0x40006614) - Data: 00 00 00 00  returns 0x04 (0000ms, 231509ms total)
T0AC8 176645:527 JLINK_ReadMemEx(0x4000661C, 0x0004 Bytes, ..., Flags = 0x02000004) -- CPU_ReadMem(4 bytes @ 0x4000661C) - Data: 01 00 00 00  returns 0x04 (0001ms, 231510ms total)
T0AC8 176645:528 JLINK_ReadMemEx(0x40006640, 0x006C Bytes, ..., Flags = 0x02000004) -- CPU_ReadMem(108 bytes @ 0x40006640) - Data: 00 00 00 00 00 00 00 00 B1 04 DC DB BD 32 BA A7 ...  returns 0x6C (0002ms, 231512ms total)
T0AC8 176645:530 JLINK_ReadMemEx(0x400066AC, 0x0004 Bytes, ..., Flags = 0x02000004) -- CPU_ReadMem(4 bytes @ 0x400066AC) - Data: C4 68 A3 9F  returns 0x04 (0000ms, 231512ms total)
T7DF4 176645:532 JLINK_IsHalted()  returns FALSE (0000ms, 231512ms total)
T7DF4 176645:633 JLINK_IsHalted()  returns FALSE (0000ms, 231512ms total)
T7DF4 176645:733 JLINK_IsHalted()  returns FALSE (0000ms, 231512ms total)
T7DF4 176645:835 JLINK_IsHalted()  returns TRUE (0003ms, 231515ms total)
T7DF4 176645:838 JLINK_Halt()  returns 0x00 (0000ms, 231512ms total)
T7DF4 176645:838 JLINK_IsHalted()  returns TRUE (0000ms, 231512ms total)
T7DF4 176645:838 JLINK_IsHalted()  returns TRUE (0000ms, 231512ms total)
T7DF4 176645:838 JLINK_IsHalted()  returns TRUE (0000ms, 231512ms total)
T7DF4 176645:838 JLINK_ReadReg(R15 (PC))  returns 0x08001204 (0000ms, 231512ms total)
T7DF4 176645:838 JLINK_ReadReg(XPSR)  returns 0x61000036 (0000ms, 231512ms total)
T7DF4 176645:838 JLINK_ClrBPEx(BPHandle = 0x00000006)  returns 0x00 (0000ms, 231512ms total)
T7DF4 176645:838 JLINK_ClrBPEx(BPHandle = 0x00000007)  returns 0x00 (0000ms, 231512ms total)
T7DF4 176645:838 JLINK_ClrBPEx(BPHandle = 0x00000008)  returns 0x00 (0000ms, 231512ms total)
T7DF4 176645:838 JLINK_ClrBPEx(BPHandle = 0x00000009)  returns 0x00 (0000ms, 231512ms total)
T7DF4 176645:838 JLINK_ReadMemU32(0xE000ED30, 0x0001 Items, ...) -- CPU_ReadMem(4 bytes @ 0xE000ED30) - Data: 03 00 00 00  returns 1 (0001ms, 231513ms total)
T7DF4 176645:839 JLINK_ReadMemU32(0xE0001028, 0x0001 Items, ...) -- CPU_ReadMem(4 bytes @ 0xE0001028) - Data: 00 00 00 00  returns 1 (0001ms, 231514ms total)
T7DF4 176645:840 JLINK_ReadMemU32(0xE0001038, 0x0001 Items, ...) -- CPU_ReadMem(4 bytes @ 0xE0001038) - Data: 00 02 00 00  returns 1 (0000ms, 231514ms total)
T7DF4 176645:840 JLINK_ReadMemU32(0xE0001048, 0x0001 Items, ...) -- CPU_ReadMem(4 bytes @ 0xE0001048) - Data: 00 00 00 00  returns 1 (0001ms, 231515ms total)
T7DF4 176645:841 JLINK_ReadMemU32(0xE0001058, 0x0001 Items, ...) -- CPU_ReadMem(4 bytes @ 0xE0001058) - Data: 00 00 00 00  returns 1 (0000ms, 231515ms total)
T7DF4 176645:841 JLINK_ReadReg(R0)  returns 0x20002834 (0000ms, 231515ms total)
T7DF4 176645:841 JLINK_ReadReg(R1)  returns 0x00000000 (0000ms, 231515ms total)
T7DF4 176645:841 JLINK_ReadReg(R2)  returns 0x20002EA8 (0001ms, 231516ms total)
T7DF4 176645:842 JLINK_ReadReg(R3)  returns 0x00000000 (0000ms, 231516ms total)
T7DF4 176645:842 JLINK_ReadReg(R4)  returns 0x00000055 (0000ms, 231516ms total)
T7DF4 176645:842 JLINK_ReadReg(R5)  returns 0x200028FC (0000ms, 231516ms total)
T7DF4 176645:842 JLINK_ReadReg(R6)  returns 0x00000000 (0000ms, 231516ms total)
T7DF4 176645:842 JLINK_ReadReg(R7)  returns 0x00000000 (0000ms, 231516ms total)
T7DF4 176645:842 JLINK_ReadReg(R8)  returns 0x00000000 (0000ms, 231516ms total)
T7DF4 176645:842 JLINK_ReadReg(R9)  returns 0x20000160 (0000ms, 231516ms total)
T7DF4 176645:842 JLINK_ReadReg(R10)  returns 0x08001B94 (0000ms, 231516ms total)
T7DF4 176645:842 JLINK_ReadReg(R11)  returns 0x00000000 (0000ms, 231516ms total)
T7DF4 176645:842 JLINK_ReadReg(R12)  returns 0xFFFFFFFF (0000ms, 231516ms total)
T7DF4 176645:842 JLINK_ReadReg(R13 (SP))  returns 0x20002F14 (0000ms, 231516ms total)
T7DF4 176645:842 JLINK_ReadReg(R14)  returns 0x08001B51 (0000ms, 231516ms total)
T7DF4 176645:842 JLINK_ReadReg(R15 (PC))  returns 0x08001204 (0000ms, 231516ms total)
T7DF4 176645:842 JLINK_ReadReg(XPSR)  returns 0x61000036 (0000ms, 231516ms total)
T7DF4 176645:842 JLINK_ReadReg(MSP)  returns 0x20002F14 (0000ms, 231516ms total)
T7DF4 176645:842 JLINK_ReadReg(PSP)  returns 0x20001000 (0000ms, 231516ms total)
T7DF4 176645:842 JLINK_ReadReg(CFBP)  returns 0x00000000 (0000ms, 231516ms total)
T0AC8 176645:842 JLINK_ReadMemEx(0x20002F18, 0x0004 Bytes, ..., Flags = 0x02000000) -- CPU_ReadMem(64 bytes @ 0x20002F00) -- Updating C cache (64 bytes @ 0x20002F00) -- Read from C cache (4 bytes @ 0x20002F18) - Data: F9 FF FF FF  returns 0x04 (0002ms, 231518ms total)
T0AC8 176645:844 JLINK_ReadMemEx(0x20002F34, 0x0004 Bytes, ..., Flags = 0x02000000) -- Read from C cache (4 bytes @ 0x20002F34) - Data: 7E 0C 00 08  returns 0x04 (0000ms, 231518ms total)
T0AC8 176645:844 JLINK_ReadMemEx(0x20002F38, 0x0004 Bytes, ..., Flags = 0x02000000) -- Read from C cache (4 bytes @ 0x20002F38) - Data: 00 00 00 21  returns 0x04 (0000ms, 231518ms total)
T0AC8 176645:844 JLINK_ReadMemEx(0x20002F30, 0x0004 Bytes, ..., Flags = 0x02000000) -- Read from C cache (4 bytes @ 0x20002F30) - Data: 73 17 00 08  returns 0x04 (0000ms, 231518ms total)
T0AC8 176645:844 JLINK_ReadMemEx(0xE000ED28, 0x0004 Bytes, ..., Flags = 0x02000000) -- CPU_ReadMem(4 bytes @ 0xE000ED28) - Data: 00 00 00 00  returns 0x04 (0000ms, 231518ms total)
T0AC8 176645:845 JLINK_ReadMemEx(0x20002F34, 0x0004 Bytes, ..., Flags = 0x02000000) -- Read from C cache (4 bytes @ 0x20002F34) - Data: 7E 0C 00 08  returns 0x04 (0000ms, 231518ms total)
T0AC8 176645:845 JLINK_ReadMemEx(0x20002F38, 0x0004 Bytes, ..., Flags = 0x02000000) -- Read from C cache (4 bytes @ 0x20002F38) - Data: 00 00 00 21  returns 0x04 (0000ms, 231518ms total)
T0AC8 176645:845 JLINK_ReadMemEx(0x20002F44, 0x0004 Bytes, ..., Flags = 0x02000000) -- CPU_ReadMem(64 bytes @ 0x20002F40) -- Updating C cache (64 bytes @ 0x20002F40) -- Read from C cache (4 bytes @ 0x20002F44) - Data: 73 17 00 08  returns 0x04 (0002ms, 231520ms total)
T0AC8 176645:847 JLINK_ReadMemEx(0x20002F44, 0x0004 Bytes, ..., Flags = 0x02000000) -- Read from C cache (4 bytes @ 0x20002F44) - Data: 73 17 00 08  returns 0x04 (0000ms, 231520ms total)
T0AC8 176645:850 JLINK_ReadMemEx(0x20000004, 0x0001 Bytes, ..., Flags = 0x02000000) -- CPU_ReadMem(64 bytes @ 0x20000000) -- Updating C cache (64 bytes @ 0x20000000) -- Read from C cache (1 bytes @ 0x20000004) - Data: 00  returns 0x01 (0002ms, 231522ms total)
T0AC8 176645:852 JLINK_ReadMemEx(0x20002834, 0x0020 Bytes, ..., Flags = 0x02000000) -- CPU_ReadMem(128 bytes @ 0x20002800) -- Updating C cache (128 bytes @ 0x20002800) -- Read from C cache (32 bytes @ 0x20002834) - Data: 55 00 00 00 00 00 00 00 00 00 00 00 00 00 00 00 ...  returns 0x20 (0001ms, 231523ms total)
T0AC8 176645:854 JLINK_ReadMemEx(0x40006400, 0x001C Bytes, ..., Flags = 0x02000004) -- CPU_ReadMem(28 bytes @ 0x40006400) - Data: 04 00 01 00 00 0C 00 00 00 00 00 1C 00 00 00 00 ...  returns 0x1C (0001ms, 231524ms total)
T0AC8 176645:855 JLINK_ReadMemEx(0x4000641C, 0x0004 Bytes, ..., Flags = 0x02000004) -- CPU_ReadMem(4 bytes @ 0x4000641C) - Data: 08 00 05 00  returns 0x04 (0001ms, 231525ms total)
T0AC8 176645:856 JLINK_ReadMemEx(0x40006580, 0x004C Bytes, ..., Flags = 0x02000004) -- CPU_ReadMem(76 bytes @ 0x40006580) - Data: 8A A2 3F 12 46 10 7C 13 D5 73 73 50 C2 B8 EC BB ...  returns 0x4C (0001ms, 231526ms total)
T0AC8 176645:857 JLINK_ReadMemEx(0x400065CC, 0x0004 Bytes, ..., Flags = 0x02000004) -- CPU_ReadMem(4 bytes @ 0x400065CC) - Data: 04 45 35 41  returns 0x04 (0001ms, 231527ms total)
T0AC8 176645:858 JLINK_ReadMemEx(0x40006600, 0x0004 Bytes, ..., Flags = 0x02000004) -- CPU_ReadMem(4 bytes @ 0x40006600) - Data: 00 0E 1C 2A  returns 0x04 (0000ms, 231527ms total)
T0AC8 176645:858 JLINK_ReadMemEx(0x40006604, 0x0004 Bytes, ..., Flags = 0x02000004) -- CPU_ReadMem(4 bytes @ 0x40006604) - Data: 00 00 00 00  returns 0x04 (0001ms, 231528ms total)
T0AC8 176645:859 JLINK_ReadMemEx(0x4000660C, 0x0004 Bytes, ..., Flags = 0x02000004) -- CPU_ReadMem(4 bytes @ 0x4000660C) - Data: 01 00 00 00  returns 0x04 (0000ms, 231528ms total)
T0AC8 176645:859 JLINK_ReadMemEx(0x40006614, 0x0004 Bytes, ..., Flags = 0x02000004) -- CPU_ReadMem(4 bytes @ 0x40006614) - Data: 00 00 00 00  returns 0x04 (0001ms, 231529ms total)
T0AC8 176645:860 JLINK_ReadMemEx(0x4000661C, 0x0004 Bytes, ..., Flags = 0x02000004) -- CPU_ReadMem(4 bytes @ 0x4000661C) - Data: 01 00 00 00  returns 0x04 (0001ms, 231530ms total)
T0AC8 176645:861 JLINK_ReadMemEx(0x40006640, 0x006C Bytes, ..., Flags = 0x02000004) -- CPU_ReadMem(108 bytes @ 0x40006640) - Data: 00 00 00 00 00 00 00 00 B1 04 DC DB BD 32 BA A7 ...  returns 0x6C (0001ms, 231531ms total)
T0AC8 176645:862 JLINK_ReadMemEx(0x400066AC, 0x0004 Bytes, ..., Flags = 0x02000004) -- CPU_ReadMem(4 bytes @ 0x400066AC) - Data: C4 68 A3 9F  returns 0x04 (0001ms, 231532ms total)
T0AC8 176645:868 JLINK_ReadMemEx(0x08001204, 0x003C Bytes, ..., Flags = 0x02000000) -- CPU_ReadMem(64 bytes @ 0x08001200) -- Updating C cache (64 bytes @ 0x08001200) -- Read from C cache (60 bytes @ 0x08001204) - Data: 12 48 00 78 05 28 08 D3 0F 48 84 78 20 46 00 F0 ...  returns 0x3C (0001ms, 231533ms total)
T0AC8 176645:869 JLINK_ReadMemEx(0x08001204, 0x0002 Bytes, ..., Flags = 0x02000000) -- Read from C cache (2 bytes @ 0x08001204) - Data: 12 48  returns 0x02 (0000ms, 231533ms total)
T0AC8 176645:869 JLINK_ReadMemEx(0x08001206, 0x0002 Bytes, ..., Flags = 0x02000000) -- Read from C cache (2 bytes @ 0x08001206) - Data: 00 78  returns 0x02 (0000ms, 231533ms total)
T0AC8 176645:869 JLINK_ReadMemEx(0x08001206, 0x0002 Bytes, ..., Flags = 0x02000000) -- Read from C cache (2 bytes @ 0x08001206) - Data: 00 78  returns 0x02 (0000ms, 231533ms total)
T0AC8 176645:869 JLINK_ReadMemEx(0x08001208, 0x003C Bytes, ..., Flags = 0x02000000) -- CPU_ReadMem(64 bytes @ 0x08001240) -- Updating C cache (64 bytes @ 0x08001240) -- Read from C cache (60 bytes @ 0x08001208) - Data: 05 28 08 D3 0F 48 84 78 20 46 00 F0 DF FA 00 20 ...  returns 0x3C (0001ms, 231534ms total)
T0AC8 176645:870 JLINK_ReadMemEx(0x08001208, 0x0002 Bytes, ..., Flags = 0x02000000) -- Read from C cache (2 bytes @ 0x08001208) - Data: 05 28  returns 0x02 (0000ms, 231534ms total)
T0AC8 176645:870 JLINK_ReadMemEx(0x08001208, 0x003C Bytes, ..., Flags = 0x02000000) -- Read from C cache (60 bytes @ 0x08001208) - Data: 05 28 08 D3 0F 48 84 78 20 46 00 F0 DF FA 00 20 ...  returns 0x3C (0000ms, 231534ms total)
T0AC8 176645:870 JLINK_ReadMemEx(0x08001208, 0x0002 Bytes, ..., Flags = 0x02000000) -- Read from C cache (2 bytes @ 0x08001208) - Data: 05 28  returns 0x02 (0000ms, 231534ms total)
T0AC8 176645:870 JLINK_ReadMemEx(0x0800120A, 0x0002 Bytes, ..., Flags = 0x02000000) -- Read from C cache (2 bytes @ 0x0800120A) - Data: 08 D3  returns 0x02 (0000ms, 231534ms total)
T7DF4 176649:076 JLINK_ReadMemEx(0x08001204, 0x0002 Bytes, ..., Flags = 0x02000000) -- Read from C cache (2 bytes @ 0x08001204) - Data: 12 48  returns 0x02 (0000ms, 231534ms total)
T7DF4 176649:076 JLINK_Step() -- Read from C cache (2 bytes @ 0x08001204) -- CPU_ReadMem(4 bytes @ 0xE000ED18) -- CPU_WriteMem(4 bytes @ 0xE000ED18) -- CPU_ReadMem(4 bytes @ 0xE000ED18) -- CPU_WriteMem(4 bytes @ 0xE000ED18) -- Read from C cache (4 bytes @ 0x08001250) -- Simulated  returns 0x00 (0003ms, 231537ms total)
T7DF4 176649:079 JLINK_ReadReg(R15 (PC))  returns 0x08001206 (0000ms, 231537ms total)
T7DF4 176649:079 JLINK_ReadReg(XPSR)  returns 0x61000036 (0000ms, 231537ms total)
T7DF4 176649:079 JLINK_SetBPEx(Addr = 0x0800152E, Type = 0xFFFFFFF2)  returns 0x0000000A (0000ms, 231537ms total)
T7DF4 176649:079 JLINK_SetBPEx(Addr = 0x08000466, Type = 0xFFFFFFF2)  returns 0x0000000B (0000ms, 231537ms total)
